 ****** HSPICE -- H-2013.03 32-BIT (Mar  7 2013) win32 ******                   
  Copyright (C) 2013 Synopsys, Inc. All Rights Reserved.                        
  Unpublished-rights reserved under US copyright laws.
  This program is protected by law and is subject to the
  terms and conditions of the license agreement from Synopsys.
  Use of this program is your acceptance to be bound by the
  license agreement. HSPICE is the trademark of Synopsys, Inc.
  Input File: TestDeemp.cir                                                     
  Command line options: TestDeemp.cir
  lic:  
  lic: FLEXlm: v10.9.8 
  lic: USER:   jun                  HOSTNAME: jun@localhost 
  lic: HOSTID: "000000000000 000000000000 28cfe91bd273 320016218600 320016218601
  0acfe91bd273 001c420
  lic: Using FLEXlm license file: 
  lic: 27000@Juns-MacBook-Pro.local 
  lic: Checkout 1 hspice 
  lic: License/Maintenance for hspice will expire on 31-dec-2019/2019.12 
  lic: NODE LOCKED license on hostid "000000000000 000000000000 28cfe91bd273 320
 016218600 32001621860
  lic:   
 Init: read install configuration file: C:\synopsys\Hspice_H-2013.03\meta.cfg
 scientific notation:
 a=10**-18  f=10**-15  p=10**-12  n=10**-9  u=10**-6
 m=10**-3   k=10**3    x=10**6    g=10**9 
1****** HSPICE -- H-2013.03 32-BIT (Mar  7 2013) win32 ******                   
 ******  
 deemp test netlist

  ******  circuit name directory
 circuit number to circuit name directory
   number circuitname                     definition         multiplier
        0 main circuit
        1 xde.                            deemp              1.00 
        2 xde.xlp.                        lp                 1.00 
        3 xde.xhp.                        hp                 1.00 
        4 xde.xsum.                       sum                1.00 
        5 xde.xg.                         gain               1.00 
        6 xde.xlp.x1.                     popamp             1.00 
        7 xde.xhp.x1.                     popamp             1.00 
        8 xde.xsum.x1.                    popamp             1.00 
        9 xde.xg.x1.                      popamp             1.00 


 circuit parameter definitions
  parameter          =  value 

     0:pi                                                      =   3.1416       
     0:w0                                                      =   6.2832k      
     1:klf                                                     = 609.4690       
     1:khf                                                     =  64.7751k      
     2:kf                                                      = 609.4690       
     2:r                                                       = 120.0000k      
     2:km                                                      = 120.0000k      
     3:kf                                                      =  64.7751k      
     3:c                                                       =   2.0000n      
     3:km                                                      =   7.7190k      
     5:a                                                       =   1.4962       




 constants  - tnom         kt           vt           gapsi        ni
            298.15000    4.1163e-21    25.69184m     1.11562    1.2565e+16 
1****** HSPICE -- H-2013.03 32-BIT (Mar  7 2013) win32 ******                   
 ******  
 deemp test netlist

  ******  circuit element summary tnom=  25.000 temp=  25.000 *****


 **** resistors

  
  
                                                              
 element name        2:r1       2:r2       3:r1       3:r2    
 node1               0:1        2:1        3:1        3:p     
 node2               2:1        2:p        1:2        0:0     
 model                                                        
 res eff           120.0000k  120.0000k    5.4573k   10.9147k 
 tc1                 0.         0.         0.         0.      
 tc2                 0.         0.         0.         0.      
 scale               1.0000     1.0000     1.0000     1.0000  
 m                   1.0000     1.0000     1.0000     1.0000  
 ac                120.0000k  120.0000k    5.4573k   10.9147k 
 temp               25.0000    25.0000    25.0000    25.0000  
 l                   0.         0.         0.         0.      
 w                   0.         0.         0.         0.      
 cap                 0.         0.         0.         0.      
 noise            1.000e+00  1.000e+00  1.000e+00  1.000e+00  
  
  
                                                              
 element name        4:r1       4:r2       4:rf       5:rf    
 node1               1:1        1:2        4:n        5:n     
 node2               4:n        4:n        1:3        0:2     
 model                                                        
 res eff            10.0000k   10.0000k   10.0000k    1.4962k 
 tc1                 0.         0.         0.         0.      
 tc2                 0.         0.         0.         0.      
 scale               1.0000     1.0000     1.0000     1.0000  
 m                   1.0000     1.0000     1.0000     1.0000  
 ac                 10.0000k   10.0000k   10.0000k    1.4962k 
 temp               25.0000    25.0000    25.0000    25.0000  
 l                   0.         0.         0.         0.      
 w                   0.         0.         0.         0.      
 cap                 0.         0.         0.         0.      
 noise            1.000e+00  1.000e+00  1.000e+00  1.000e+00  
  
  
                                                            
 element name        5:ri       6:ri       6:r       6:ro   
 node1               1:3        2:p        6:1       6:6    
 node2               5:n        1:1        6:3       1:1    
 model                                                      
 res eff             1.0000k    2.0000x    1.0000   75.0000 
 tc1                 0.         0.         0.        0.     
 tc2                 0.         0.         0.        0.     
 scale               1.0000     1.0000     1.0000    1.0000 
 m                   1.0000     1.0000     1.0000    1.0000 
 ac                  1.0000k    2.0000x    1.0000   75.0000 
 temp               25.0000    25.0000    25.0000   25.0000 
 l                   0.         0.         0.        0.     
 w                   0.         0.         0.        0.     
 cap                 0.         0.         0.        0.     
 noise            1.000e+00  1.000e+00  1.000e+00 1.000e+00 
  
  
                                                            
 element name        7:ri       7:r       7:ro      8:ri    
 node1               3:p        7:1       7:6       0:0     
 node2               1:2        7:3       1:2       4:n     
 model                                                      
 res eff             2.0000x    1.0000   75.0000    2.0000x 
 tc1                 0.         0.        0.        0.      
 tc2                 0.         0.        0.        0.      
 scale               1.0000     1.0000    1.0000    1.0000  
 m                   1.0000     1.0000    1.0000    1.0000  
 ac                  2.0000x    1.0000   75.0000    2.0000x 
 temp               25.0000    25.0000   25.0000   25.0000  
 l                   0.         0.        0.        0.      
 w                   0.         0.        0.        0.      
 cap                 0.         0.        0.        0.      
 noise            1.000e+00  1.000e+00 1.000e+00 1.000e+00  
  
  
                                                           
 element name        8:r       8:ro      9:ri       9:r    
 node1               8:1       8:6       0:0        9:1    
 node2               8:3       1:3       5:n        9:3    
 model                                                     
 res eff             1.0000   75.0000    2.0000x    1.0000 
 tc1                 0.        0.        0.         0.     
 tc2                 0.        0.        0.         0.     
 scale               1.0000    1.0000    1.0000     1.0000 
 m                   1.0000    1.0000    1.0000     1.0000 
 ac                  1.0000   75.0000    2.0000x    1.0000 
 temp               25.0000   25.0000   25.0000    25.0000 
 l                   0.        0.        0.         0.     
 w                   0.        0.        0.         0.     
 cap                 0.        0.        0.         0.     
 noise            1.000e+00 1.000e+00 1.000e+00  1.000e+00 
  
  
                            
 element name        9:ro   
 node1               9:6    
 node2               0:2    
 model                      
 res eff            75.0000 
 tc1                 0.     
 tc2                 0.     
 scale               1.0000 
 m                   1.0000 
 ac                 75.0000 
 temp               25.0000 
 l                   0.     
 w                   0.     
 cap                 0.     
 noise            1.000e+00 


 **** capacitors
  
  
                                                              
 element name        2:c1       2:c2       3:c1       3:c2    
 node1               2:1        2:p        0:1        3:1     
 node2               1:1        0:0        3:1        3:p     
 model                                                        
 cap eff            19.3338n    9.6669n    2.0000n    2.0000n 
 tc1                 0.         0.         0.         0.      
 tc2                 0.         0.         0.         0.      
 scale               1.0000     1.0000     1.0000     1.0000  
 ic                  0.         0.         0.         0.      
 m                   1.0000     1.0000     1.0000     1.0000  
 w                   0.         0.         0.         0.      
 l                   0.         0.         0.         0.      
 temp               25.0000    25.0000    25.0000    25.0000  
  
  
                                                              
 element name        6:c        7:c        8:c        9:c     
 node1               6:3        7:3        8:3        9:3     
 node2               0:0        0:0        0:0        0:0     
 model                                                        
 cap eff            31.8300m   31.8300m   31.8300m   31.8300m 
 tc1                 0.         0.         0.         0.      
 tc2                 0.         0.         0.         0.      
 scale               1.0000     1.0000     1.0000     1.0000  
 ic                  0.         0.         0.         0.      
 m                   1.0000     1.0000     1.0000     1.0000  
 w                   0.         0.         0.         0.      
 l                   0.         0.         0.         0.      
 temp               25.0000    25.0000    25.0000    25.0000  


 **** voltage-controlled voltage sources
      name        +             -          dimension  function  scale
        6:ei              6:1               0:0              1      poly       1.    
        6:eo              6:6               0:0              1      poly       1.    
        7:ei              7:1               0:0              1      poly       1.    
        7:eo              7:6               0:0              1      poly       1.    
        8:ei              8:1               0:0              1      poly       1.    
        8:eo              8:6               0:0              1      poly       1.    
        9:ei              9:1               0:0              1      poly       1.    
        9:eo              9:6               0:0              1      poly       1.    


 **** independent sources

     name         node1        node2      dc volt    ac mag    ac phase    type
  vin  0                 1                    0.         1.0000     0.      dc   


 **** subcircuit calls
    name        subcircuit         external nodes


         0:xde      deemp           0:1           0:2       
         1:xlp      lp              0:1           1:1       
         1:xhp      hp              0:1           1:2       
         1:xsum     sum             1:1           1:2           1:3       
         1:xg       gain            1:3           0:2       
         2:x1       popamp          2:p           1:1           1:1       
         3:x1       popamp          3:p           1:2           1:2       
         4:x1       popamp          0:0           4:n           1:3       
         5:x1       popamp          0:0           5:n           0:2       
  
      
 *****************************************************************
 ******  option summary
 ******
 runlvl  = 3         bypass  = 2         
  Opening plot unit= 79
 file=TestDeemp.pa0

1****** HSPICE -- H-2013.03 32-BIT (Mar  7 2013) win32 ******                   
 ******  
 deemp test netlist

  ******  operating point information tnom=  25.000 temp=  25.000 *****
 ***** operating point status is all       simulation time is     0.     
    node    =voltage      node    =voltage      node    =voltage

 +0:1       =   0.      0:2       =   0.      1:1       =   0.     
 +1:2       =   0.      1:3       =   0.      2:1       =   0.     
 +2:p       =   0.      3:1       =   0.      3:p       =   0.     
 +4:n       =   0.      5:n       =   0.      6:1       =   0.     
 +6:3       =   0.      6:6       =   0.      7:1       =   0.     
 +7:3       =   0.      7:6       =   0.      8:1       =   0.     
 +8:3       =   0.      8:6       =   0.      9:1       =   0.     
 +9:3       =   0.      9:6       =   0.     


 **** voltage sources

 subckt             
 element  0:vin     
  volts      0.     
  current    0.     
  power      0.     

     total voltage source power dissipation=    0.            watts



 **** resistors

 subckt   xde.xlp    xde.xlp    xde.xhp    xde.xhp    xde.xsum   xde.xsum  
 element  2:r1       2:r2       3:r1       3:r2       4:r1       4:r2      
  r value  120.0000k  120.0000k    5.4573k   10.9147k   10.0000k   10.0000k
  v drop     0.         0.         0.         0.         0.         0.     
  current    0.         0.         0.         0.         0.         0.     
  power      0.         0.         0.         0.         0.         0.     

 subckt   xde.xsum   xde.xg     xde.xg     xde.xlp.x1 xde.xlp.x1 xde.xlp.x1
 element  4:rf       5:rf       5:ri       6:ri       6:r        6:ro      
  r value   10.0000k    1.4962k    1.0000k    2.0000x    1.0000    75.0000 
  v drop     0.         0.         0.         0.         0.         0.     
  current    0.         0.         0.         0.         0.         0.     
  power      0.         0.         0.         0.         0.         0.     

 subckt   xde.xhp.x1 xde.xhp.x1 xde.xhp.x1 xde.xsum.x xde.xsum.x xde.xsum.x
 element  7:ri       7:r        7:ro       8:ri       8:r        8:ro      
  r value    2.0000x    1.0000    75.0000     2.0000x    1.0000    75.0000 
  v drop     0.         0.         0.         0.         0.         0.     
  current    0.         0.         0.         0.         0.         0.     
  power      0.         0.         0.         0.         0.         0.     

 subckt   xde.xg.x1  xde.xg.x1  xde.xg.x1 
 element  9:ri       9:r        9:ro      
  r value    2.0000x    1.0000    75.0000 
  v drop     0.         0.         0.     
  current    0.         0.         0.     
  power      0.         0.         0.     


 **** voltage-controlled voltage sources


 subckt     xde.xlp.   xde.xlp.   xde.xhp.   xde.xhp.   xde.xsum   xde.xsum
 element  6:ei       6:eo       7:ei       7:eo       8:ei       8:eo      
  volts      0.         0.         0.         0.         0.         0.     
  current    0.         0.         0.         0.         0.         0.     



 subckt     xde.xg.x   xde.xg.x
 element  9:ei       9:eo      
  volts      0.         0.     
  current    0.         0.     



 ******  
 deemp test netlist

  ******  ac analysis tnom=  25.000 temp=  25.000 *****
x

        freq    volt db    
                     2     
  100.00000     218.0503m  
  105.92537    -340.6613m  
  112.20185    -955.0420m  
  118.85022      -1.6222   
  125.89254      -2.3383   
  133.35214      -3.0986   
  141.25375      -3.8982   
  149.62357      -4.7319   
  158.48932      -5.5948   
  167.88040      -6.4823   
  177.82794      -7.3904   
  188.36491      -8.3152   
  199.52623      -9.2537   
  211.34890     -10.2031   
  223.87211     -11.1611   
  237.13737     -12.1255   
  251.18864     -13.0948   
  266.07251     -14.0672   
  281.83829     -15.0414   
  298.53826     -16.0159   
  316.22777     -16.9896   
  334.96544     -17.9609   
  354.81339     -18.9283   
  375.83740     -19.8902   
  398.10717     -20.8445   
  421.69650     -21.7888   
  446.68359     -22.7204   
  473.15126     -23.6360   
  501.18723     -24.5313   
  530.88444     -25.4017   
  562.34133     -26.2414   
  595.66214     -27.0436   
  630.95734     -27.8006   
  668.34392     -28.5036   
  707.94578     -29.1429   
  749.89421     -29.7084   
  794.32823     -30.1895   
  841.39514     -30.5763   
  891.25094     -30.8599   
  944.06088     -31.0331   
    1.00000k    -31.0914   
    1.05925k    -31.0332   
    1.12202k    -30.8601   
    1.18850k    -30.5766   
    1.25893k    -30.1898   
    1.33352k    -29.7086   
    1.41254k    -29.1431   
    1.49624k    -28.5036   
    1.58489k    -27.8005   
    1.67880k    -27.0433   
    1.77828k    -26.2408   
    1.88365k    -25.4008   
    1.99526k    -24.5300   
    2.11349k    -23.6342   
    2.23872k    -22.7181   
    2.37137k    -21.7859   
    2.51189k    -20.8409   
    2.66073k    -19.8859   
    2.81838k    -18.9232   
    2.98538k    -17.9549   
    3.16228k    -16.9826   
    3.34965k    -16.0079   
    3.54813k    -15.0322   
    3.75837k    -14.0568   
    3.98107k    -13.0832   
    4.21697k    -12.1126   
    4.46684k    -11.1468   
    4.73151k    -10.1875   
    5.01187k     -9.2368   
    5.30884k     -8.2971   
    5.62341k     -7.3713   
    5.95662k     -6.4625   
    6.30957k     -5.5746   
    6.68344k     -4.7118   
    7.07946k     -3.8790   
    7.49894k     -3.0811   
    7.94328k     -2.3233   
    8.41395k     -1.6110   
    8.91251k   -948.6658m  
    9.44061k   -340.3781m  
   10.00000k    211.0836m  
y
-----------------------------------------------

          ***** job concluded
1****** HSPICE -- H-2013.03 32-BIT (Mar  7 2013) win32 ******                   
 ******  
 deemp test netlist

  ******  job statistics summary tnom=  25.000 temp=  25.000 *****

  ******  HSPICE Threads Information  ******

  Command Line Threads Count :     1
  Available CPU Count        :     8
  Actual Threads Count       :     1


  ******  Circuit Statistics  ******
  # nodes       =      24 # elements   =      38
  # resistors   =      21 # capacitors =       8 # inductors   =       0
  # mutual_inds =       0 # vccs       =       0 # vcvs        =       8
  # cccs        =       0 # ccvs       =       0 # volt_srcs   =       1
  # curr_srcs   =       0 # diodes     =       0 # bjts        =       0
  # jfets       =       0 # mosfets    =       0 # U elements  =       0
  # T elements  =       0 # W elements =       0 # B elements  =       0
  # S elements  =       0 # P elements =       0 # va device   =       0
  # vector_srcs =       0 # N elements =       0


  ******  Runtime Statistics (seconds)  ******

  analysis           time    # points   tot. iter  conv.iter
  op point           0.00           1           3
  ac analysis        0.00          81          81
  readin             0.01
  errchk             0.01
  setup              0.00
  output             0.00


