 ****** HSPICE -- H-2013.03 32-BIT (Mar  7 2013) win32 ******                   
  Copyright (C) 2013 Synopsys, Inc. All Rights Reserved.                        
  Unpublished-rights reserved under US copyright laws.
  This program is protected by law and is subject to the
  terms and conditions of the license agreement from Synopsys.
  Use of this program is your acceptance to be bound by the
  license agreement. HSPICE is the trademark of Synopsys, Inc.
  Input File: TestPreemp.cir                                                    
  Command line options: TestPreemp.cir
  lic:  
  lic: FLEXlm: v10.9.8 
  lic: USER:   jun                  HOSTNAME: jun@localhost 
  lic: HOSTID: "000000000000 000000000000 28cfe91bd273 320016218600 320016218601
  0acfe91bd273 001c420
  lic: Using FLEXlm license file: 
  lic: 27000@Juns-MacBook-Pro.local 
  lic: Checkout 1 hspice 
  lic: License/Maintenance for hspice will expire on 31-dec-2019/2019.12 
  lic: NODE LOCKED license on hostid "000000000000 000000000000 28cfe91bd273 320
 016218600 32001621860
  lic:   
 Init: read install configuration file: C:\synopsys\Hspice_H-2013.03\meta.cfg
 scientific notation:
 a=10**-18  f=10**-15  p=10**-12  n=10**-9  u=10**-6
 m=10**-3   k=10**3    x=10**6    g=10**9 
1****** HSPICE -- H-2013.03 32-BIT (Mar  7 2013) win32 ******                   
 ******  
 preemp test netlist

  ******  circuit name directory
 circuit number to circuit name directory
   number circuitname                     definition         multiplier
        0 main circuit
        1 xpe.                            preemp             1.00 
        2 xpe.xhp.                        hp                 1.00 
        3 xpe.xlp.                        lp                 1.00 
        4 xpe.xg.                         gain               1.00 
        5 xpe.xhp.x1.                     popamp             1.00 
        6 xpe.xlp.x1.                     popamp             1.00 
        7 xpe.xg.x1.                      popamp             1.00 


 circuit parameter definitions
  parameter          =  value 

     0:pi                                                      =   3.1416       
     0:w0                                                      =   6.2832k      
     1:khf                                                     =   3.3301k      
     1:klf                                                     =  11.8551k      
     2:kf                                                      =   3.3301k      
     2:c                                                       =   2.0000n      
     2:km                                                      = 150.1462k      
     3:kf                                                      =  11.8551k      
     3:r                                                       = 120.0000k      
     3:km                                                      = 120.0000k      
     4:a                                                       =  28.1838       




 constants  - tnom         kt           vt           gapsi        ni
            298.15000    4.1163e-21    25.69184m     1.11562    1.2565e+16 
1****** HSPICE -- H-2013.03 32-BIT (Mar  7 2013) win32 ******                   
 ******  
 preemp test netlist

  ******  circuit element summary tnom=  25.000 temp=  25.000 *****


 **** resistors

  
  
                                                              
 element name        2:r1       2:r2       3:r1       3:r2    
 node1               2:1        2:p        1:1        3:1     
 node2               1:1        0:0        3:1        3:p     
 model                                                        
 res eff           106.1533k  212.3067k  120.0000k  120.0000k 
 tc1                 0.         0.         0.         0.      
 tc2                 0.         0.         0.         0.      
 scale               1.0000     1.0000     1.0000     1.0000  
 m                   1.0000     1.0000     1.0000     1.0000  
 ac                106.1533k  212.3067k  120.0000k  120.0000k 
 temp               25.0000    25.0000    25.0000    25.0000  
 l                   0.         0.         0.         0.      
 w                   0.         0.         0.         0.      
 cap                 0.         0.         0.         0.      
 noise            1.000e+00  1.000e+00  1.000e+00  1.000e+00  
  
  
                                                             
 element name        4:rf       4:ri       5:ri       5:r    
 node1               4:n        1:2        2:p        5:1    
 node2               0:2        4:n        1:1        5:3    
 model                                                       
 res eff            28.1838k    1.0000k    2.0000x    1.0000 
 tc1                 0.         0.         0.         0.     
 tc2                 0.         0.         0.         0.     
 scale               1.0000     1.0000     1.0000     1.0000 
 m                   1.0000     1.0000     1.0000     1.0000 
 ac                 28.1838k    1.0000k    2.0000x    1.0000 
 temp               25.0000    25.0000    25.0000    25.0000 
 l                   0.         0.         0.         0.     
 w                   0.         0.         0.         0.     
 cap                 0.         0.         0.         0.     
 noise            1.000e+00  1.000e+00  1.000e+00  1.000e+00 
  
  
                                                           
 element name        5:ro      6:ri       6:r       6:ro   
 node1               5:6       3:p        6:1       6:6    
 node2               1:1       1:2        6:3       1:2    
 model                                                     
 res eff            75.0000    2.0000x    1.0000   75.0000 
 tc1                 0.        0.         0.        0.     
 tc2                 0.        0.         0.        0.     
 scale               1.0000    1.0000     1.0000    1.0000 
 m                   1.0000    1.0000     1.0000    1.0000 
 ac                 75.0000    2.0000x    1.0000   75.0000 
 temp               25.0000   25.0000    25.0000   25.0000 
 l                   0.        0.         0.        0.     
 w                   0.        0.         0.        0.     
 cap                 0.        0.         0.        0.     
 noise            1.000e+00 1.000e+00  1.000e+00 1.000e+00 
  
  
                                                 
 element name        7:ri       7:r       7:ro   
 node1               0:0        7:1       7:6    
 node2               4:n        7:3       0:2    
 model                                           
 res eff             2.0000x    1.0000   75.0000 
 tc1                 0.         0.        0.     
 tc2                 0.         0.        0.     
 scale               1.0000     1.0000    1.0000 
 m                   1.0000     1.0000    1.0000 
 ac                  2.0000x    1.0000   75.0000 
 temp               25.0000    25.0000   25.0000 
 l                   0.         0.        0.     
 w                   0.         0.        0.     
 cap                 0.         0.        0.     
 noise            1.000e+00  1.000e+00 1.000e+00 


 **** capacitors
  
  
                                                              
 element name        2:c1       2:c2       3:c1       3:c2    
 node1               0:1        2:1        3:1        3:p     
 node2               2:1        2:p        1:2        0:0     
 model                                                        
 cap eff             2.0000n    2.0000n  993.9491p  496.9746p 
 tc1                 0.         0.         0.         0.      
 tc2                 0.         0.         0.         0.      
 scale               1.0000     1.0000     1.0000     1.0000  
 ic                  0.         0.         0.         0.      
 m                   1.0000     1.0000     1.0000     1.0000  
 w                   0.         0.         0.         0.      
 l                   0.         0.         0.         0.      
 temp               25.0000    25.0000    25.0000    25.0000  
  
  
                                                   
 element name        5:c        6:c        7:c     
 node1               5:3        6:3        7:3     
 node2               0:0        0:0        0:0     
 model                                             
 cap eff            31.8300m   31.8300m   31.8300m 
 tc1                 0.         0.         0.      
 tc2                 0.         0.         0.      
 scale               1.0000     1.0000     1.0000  
 ic                  0.         0.         0.      
 m                   1.0000     1.0000     1.0000  
 w                   0.         0.         0.      
 l                   0.         0.         0.      
 temp               25.0000    25.0000    25.0000  


 **** voltage-controlled voltage sources
      name        +             -          dimension  function  scale
        5:ei              5:1               0:0              1      poly       1.    
        5:eo              5:6               0:0              1      poly       1.    
        6:ei              6:1               0:0              1      poly       1.    
        6:eo              6:6               0:0              1      poly       1.    
        7:ei              7:1               0:0              1      poly       1.    
        7:eo              7:6               0:0              1      poly       1.    


 **** independent sources

     name         node1        node2      dc volt    ac mag    ac phase    type
  vin  0                 1                    0.         1.0000     0.      dc   


 **** subcircuit calls
    name        subcircuit         external nodes


         0:xpe      preemp          0:1           0:2       
         1:xhp      hp              0:1           1:1       
         1:xlp      lp              1:1           1:2       
         1:xg       gain            1:2           0:2       
         2:x1       popamp          2:p           1:1           1:1       
         3:x1       popamp          3:p           1:2           1:2       
         4:x1       popamp          0:0           4:n           0:2       
  
      
 *****************************************************************
 ******  option summary
 ******
 runlvl  = 3         bypass  = 2         
  Opening plot unit= 79
 file=TestPreemp.pa0

1****** HSPICE -- H-2013.03 32-BIT (Mar  7 2013) win32 ******                   
 ******  
 preemp test netlist

  ******  operating point information tnom=  25.000 temp=  25.000 *****
 ***** operating point status is all       simulation time is     0.     
    node    =voltage      node    =voltage      node    =voltage

 +0:1       =   0.      0:2       =   0.      1:1       =   0.     
 +1:2       =   0.      2:1       =   0.      2:p       =   0.     
 +3:1       =   0.      3:p       =   0.      4:n       =   0.     
 +5:1       =   0.      5:3       =   0.      5:6       =   0.     
 +6:1       =   0.      6:3       =   0.      6:6       =   0.     
 +7:1       =   0.      7:3       =   0.      7:6       =   0.     


 **** voltage sources

 subckt             
 element  0:vin     
  volts      0.     
  current    0.     
  power      0.     

     total voltage source power dissipation=    0.            watts



 **** resistors

 subckt   xpe.xhp    xpe.xhp    xpe.xlp    xpe.xlp    xpe.xg     xpe.xg    
 element  2:r1       2:r2       3:r1       3:r2       4:rf       4:ri      
  r value  106.1533k  212.3067k  120.0000k  120.0000k   28.1838k    1.0000k
  v drop     0.         0.         0.         0.         0.         0.     
  current    0.         0.         0.         0.         0.         0.     
  power      0.         0.         0.         0.         0.         0.     

 subckt   xpe.xhp.x1 xpe.xhp.x1 xpe.xhp.x1 xpe.xlp.x1 xpe.xlp.x1 xpe.xlp.x1
 element  5:ri       5:r        5:ro       6:ri       6:r        6:ro      
  r value    2.0000x    1.0000    75.0000     2.0000x    1.0000    75.0000 
  v drop     0.         0.         0.         0.         0.         0.     
  current    0.         0.         0.         0.         0.         0.     
  power      0.         0.         0.         0.         0.         0.     

 subckt   xpe.xg.x1  xpe.xg.x1  xpe.xg.x1 
 element  7:ri       7:r        7:ro      
  r value    2.0000x    1.0000    75.0000 
  v drop     0.         0.         0.     
  current    0.         0.         0.     
  power      0.         0.         0.     


 **** voltage-controlled voltage sources


 subckt     xpe.xhp.   xpe.xhp.   xpe.xlp.   xpe.xlp.   xpe.xg.x   xpe.xg.x
 element  5:ei       5:eo       6:ei       6:eo       7:ei       7:eo      
  volts      0.         0.         0.         0.         0.         0.     
  current    0.         0.         0.         0.         0.         0.     



 ******  
 preemp test netlist

  ******  ac analysis tnom=  25.000 temp=  25.000 *****
x

        freq    volt db    
                     2     
  100.00000      19.6881m  
  105.92537       1.0183   
  112.20185       2.0165   
  118.85022       3.0143   
  125.89254       4.0115   
  133.35214       5.0079   
  141.25375       6.0035   
  149.62357       6.9978   
  158.48932       7.9908   
  167.88040       8.9819   
  177.82794       9.9707   
  188.36491      10.9566   
  199.52623      11.9390   
  211.34890      12.9168   
  223.87211      13.8891   
  237.13737      14.8544   
  251.18864      15.8112   
  266.07251      16.7572   
  281.83829      17.6903   
  298.53826      18.6074   
  316.22777      19.5051   
  334.96544      20.3796   
  354.81339      21.2266   
  375.83740      22.0411   
  398.10717      22.8181   
  421.69650      23.5525   
  446.68359      24.2393   
  473.15126      24.8741   
  501.18723      25.4533   
  530.88444      25.9746   
  562.34133      26.4370   
  595.66214      26.8409   
  630.95734      27.1881   
  668.34392      27.4814   
  707.94578      27.7245   
  749.89421      27.9214   
  794.32823      28.0759   
  841.39514      28.1917   
  891.25094      28.2721   
  944.06088      28.3191   
    1.00000k     28.3343   
    1.05925k     28.3182   
    1.12202k     28.2702   
    1.18850k     28.1889   
    1.25893k     28.0718   
    1.33352k     27.9159   
    1.41254k     27.7175   
    1.49624k     27.4726   
    1.58489k     27.1771   
    1.67880k     26.8275   
    1.77828k     26.4208   
    1.88365k     25.9554   
    1.99526k     25.4308   
    2.11349k     24.8480   
    2.23872k     24.2094   
    2.37137k     23.5186   
    2.51189k     22.7800   
    2.66073k     21.9985   
    2.81838k     21.1793   
    2.98538k     20.3275   
    3.16228k     19.4477   
    3.34965k     18.5443   
    3.54813k     17.6212   
    3.75837k     16.6817   
    3.98107k     15.7285   
    4.21697k     14.7640   
    4.46684k     13.7901   
    4.73151k     12.8084   
    5.01187k     11.8201   
    5.30884k     10.8262   
    5.62341k      9.8273   
    5.95662k      8.8242   
    6.30957k      7.8171   
    6.68344k      6.8064   
    7.07946k      5.7922   
    7.49894k      4.7746   
    7.94328k      3.7535   
    8.41395k      2.7289   
    8.91251k      1.7006   
    9.44061k    668.3734m  
   10.00000k   -368.0323m  
y
-----------------------------------------------

          ***** job concluded
1****** HSPICE -- H-2013.03 32-BIT (Mar  7 2013) win32 ******                   
 ******  
 preemp test netlist

  ******  job statistics summary tnom=  25.000 temp=  25.000 *****

  ******  HSPICE Threads Information  ******

  Command Line Threads Count :     1
  Available CPU Count        :     8
  Actual Threads Count       :     1


  ******  Circuit Statistics  ******
  # nodes       =      19 # elements   =      29
  # resistors   =      15 # capacitors =       7 # inductors   =       0
  # mutual_inds =       0 # vccs       =       0 # vcvs        =       6
  # cccs        =       0 # ccvs       =       0 # volt_srcs   =       1
  # curr_srcs   =       0 # diodes     =       0 # bjts        =       0
  # jfets       =       0 # mosfets    =       0 # U elements  =       0
  # T elements  =       0 # W elements =       0 # B elements  =       0
  # S elements  =       0 # P elements =       0 # va device   =       0
  # vector_srcs =       0 # N elements =       0


  ******  Runtime Statistics (seconds)  ******

  analysis           time    # points   tot. iter  conv.iter
  op point           0.00           1           3
  ac analysis        0.00          81          81
  readin             0.01
  errchk             0.01
  setup              0.00
  output             0.00


           peak memory used          0.00 megabytes
           total cpu time            0.02 seconds
           total elapsed time        2.50 seconds
           job started at     17:39:46 12/02/2013
           job ended   at     17:39:49 12/02/2013


  lic: Release hspice token(s) 
 lic: total license checkout elapse time:        2.46(s)
